T24AC 000:004.880   SEGGER J-Link V7.88a Log File
T24AC 000:005.044   DLL Compiled: May  3 2023 14:32:24
T24AC 000:005.050   Logging started @ 2024-07-10 11:03
T24AC 000:005.055 - 5.057ms
T24AC 000:005.066 JLINK_SetWarnOutHandler(...)
T24AC 000:005.073 - 0.009ms
T24AC 000:005.080 JLINK_OpenEx(...)
T24AC 000:006.531   Firmware: J-Link V9 compiled May  7 2021 16:26:12
T24AC 000:007.050   Firmware: J-Link V9 compiled May  7 2021 16:26:12
T24AC 000:007.254   Decompressing FW timestamp took 169 us
T24AC 000:013.354   Hardware: V9.60
T24AC 000:013.373   S/N: 69653016
T24AC 000:013.382   OEM: SEGGER
T24AC 000:013.397   Feature(s): RDI, GDB, FlashDL, FlashBP, JFlash
T24AC 000:014.355   TELNET listener socket opened on port 19021
T24AC 000:014.456   WEBSRV WEBSRV_Init(): Starting webserver thread(s)
T24AC 000:014.589   WEBSRV Webserver running on local port 19080
T24AC 000:019.116 - 14.051ms returns "O.K."
T24AC 000:019.159 JLINK_GetEmuCaps()
T24AC 000:019.188 - 0.032ms returns 0xB9FF7BBF
T24AC 000:019.202 JLINK_TIF_GetAvailable(...)
T24AC 000:019.474 - 0.282ms
T24AC 000:019.492 JLINK_SetErrorOutHandler(...)
T24AC 000:019.498 - 0.009ms
T24AC 000:019.564 JLINK_ExecCommand("ProjectFile = "E:\HQ\SVNdtata\wangdongchuan\E063_V0.0\PRJ\JLinkSettings.ini"", ...). 
T24AC 000:033.076   Ref file found at: D:\MDK5\ARM\Segger\JLinkDevices.ref
T24AC 000:033.176   REF file references invalid XML file: C:\Program Files\SEGGER\JLink\JLinkDevices.xml
T24AC 000:033.287 - 13.727ms returns 0x00
T24AC 000:039.864 JLINK_ExecCommand("Device = GD32F407ZE", ...). 
T24AC 000:046.350   Device "GD32F407ZE" selected.
T24AC 000:046.720 - 6.841ms returns 0x00
T24AC 000:046.737 JLINK_ExecCommand("DisableConnectionTimeout", ...). 
T24AC 000:046.767 - 0.004ms returns 0x01
T24AC 000:046.777 JLINK_GetHardwareVersion()
T24AC 000:046.782 - 0.008ms returns 96000
T24AC 000:046.796 JLINK_GetDLLVersion()
T24AC 000:046.802 - 0.008ms returns 78801
T24AC 000:046.809 JLINK_GetOEMString(...)
T24AC 000:046.816 JLINK_GetFirmwareString(...)
T24AC 000:046.835 - 0.021ms
T24AC 000:066.041 JLINK_GetDLLVersion()
T24AC 000:066.060 - 0.022ms returns 78801
T24AC 000:066.068 JLINK_GetCompileDateTime()
T24AC 000:066.073 - 0.007ms
T24AC 000:073.027 JLINK_GetFirmwareString(...)
T24AC 000:073.047 - 0.022ms
T24AC 000:078.581 JLINK_GetHardwareVersion()
T24AC 000:078.597 - 0.018ms returns 96000
T24AC 000:085.156 JLINK_GetSN()
T24AC 000:085.189 - 0.035ms returns 69653016
T24AC 000:091.277 JLINK_GetOEMString(...)
T24AC 000:103.730 JLINK_TIF_Select(JLINKARM_TIF_SWD)
T24AC 000:104.532 - 0.808ms returns 0x00
T24AC 000:104.551 JLINK_HasError()
T24AC 000:104.570 JLINK_SetSpeed(500)
T24AC 000:104.724 - 0.160ms
T24AC 000:104.745 JLINK_GetId()
T24AC 000:111.829   Found SW-DP with ID 0x2BA01477
T24AC 000:124.137   DPIDR: 0x2BA01477
T24AC 000:130.184   CoreSight SoC-400 or earlier
T24AC 000:136.526   Scanning AP map to find all available APs
T24AC 000:144.803   AP[1]: Stopped AP scan as end of AP map has been reached
T24AC 000:150.882   AP[0]: AHB-AP (IDR: 0x24770011)
T24AC 000:157.101   Iterating through AP map to find AHB-AP to use
T24AC 000:166.152   AP[0]: Core found
T24AC 000:172.547   AP[0]: AHB-AP ROM base: 0xE00FF000
T24AC 000:180.759   CPUID register: 0x410FC241. Implementer code: 0x41 (ARM)
T24AC 000:187.352   Found Cortex-M4 r0p1, Little endian.
T24AC 000:187.816   -- Max. mem block: 0x00010C40
T24AC 000:188.377   CPU_ReadMem(4 bytes @ 0xE000EDF0)
T24AC 000:189.487   CPU_WriteMem(4 bytes @ 0xE000EDF0)
T24AC 000:190.482   CPU_ReadMem(4 bytes @ 0xE0002000)
T24AC 000:198.028   FPUnit: 6 code (BP) slots and 2 literal slots
T24AC 000:198.051   CPU_ReadMem(4 bytes @ 0xE000EDFC)
T24AC 000:199.375   CPU_WriteMem(4 bytes @ 0xE000EDFC)
T24AC 000:200.648   CPU_ReadMem(4 bytes @ 0xE0001000)
T24AC 000:201.564   CPU_WriteMem(4 bytes @ 0xE0001000)
T24AC 000:202.607   CPU_ReadMem(4 bytes @ 0xE000ED88)
T24AC 000:203.843   CPU_WriteMem(4 bytes @ 0xE000ED88)
T24AC 000:205.072   CPU_ReadMem(4 bytes @ 0xE000ED88)
T24AC 000:206.176   CPU_WriteMem(4 bytes @ 0xE000ED88)
T24AC 000:214.180   CoreSight components:
T24AC 000:221.306   ROMTbl[0] @ E00FF000
T24AC 000:221.334   CPU_ReadMem(64 bytes @ 0xE00FF000)
T24AC 000:223.878   CPU_ReadMem(32 bytes @ 0xE000EFE0)
T24AC 000:231.389   [0][0]: E000E000 CID B105E00D PID 000BB00C SCS-M7
T24AC 000:231.413   CPU_ReadMem(32 bytes @ 0xE0001FE0)
T24AC 000:240.813   [0][1]: E0001000 CID B105E00D PID 003BB002 DWT
T24AC 000:240.841   CPU_ReadMem(32 bytes @ 0xE0002FE0)
T24AC 000:248.419   [0][2]: E0002000 CID B105E00D PID 002BB003 FPB
T24AC 000:248.442   CPU_ReadMem(32 bytes @ 0xE0000FE0)
T24AC 000:257.138   [0][3]: E0000000 CID B105E00D PID 003BB001 ITM
T24AC 000:257.166   CPU_ReadMem(32 bytes @ 0xE0040FE0)
T24AC 000:265.371   [0][4]: E0040000 CID B105900D PID 000BB9A1 TPIU
T24AC 000:265.400   CPU_ReadMem(32 bytes @ 0xE0041FE0)
T24AC 000:274.266   [0][5]: E0041000 CID 00000000 PID 00000000 ???
T24AC 000:274.809 - 170.079ms returns 0x2BA01477
T24AC 000:274.851 JLINK_GetDLLVersion()
T24AC 000:274.877 - 0.029ms returns 78801
T24AC 000:274.885 JLINK_CORE_GetFound()
T24AC 000:274.891 - 0.008ms returns 0xE0000FF
T24AC 000:274.992 JLINK_GetDebugInfo(0x100 = JLINKARM_ROM_TABLE_ADDR_INDEX)
T24AC 000:275.006   Value=0xE00FF000
T24AC 000:275.014 - 0.025ms returns 0
T24AC 000:281.042 JLINK_GetDebugInfo(0x100 = JLINKARM_ROM_TABLE_ADDR_INDEX)
T24AC 000:281.059   Value=0xE00FF000
T24AC 000:281.068 - 0.029ms returns 0
T24AC 000:281.075 JLINK_GetDebugInfo(0x101 = JLINKARM_DEBUG_INFO_ETM_ADDR_INDEX)
T24AC 000:281.081   Value=0x00000000
T24AC 000:281.089 - 0.016ms returns 0
T24AC 000:281.097 JLINK_ReadMemEx(0xE0041FF0, 0x10 Bytes, Flags = 0x02000004)
T24AC 000:281.136   CPU_ReadMem(16 bytes @ 0xE0041FF0)
T24AC 000:282.606   Data:  00 00 00 00 00 00 00 00 00 00 00 00 00 00 00 00
T24AC 000:282.629 - 1.535ms returns 16 (0x10)
T24AC 000:282.642 JLINK_GetDebugInfo(0x102 = JLINKARM_DEBUG_INFO_MTB_ADDR_INDEX)
T24AC 000:282.648   Value=0x00000000
T24AC 000:282.656 - 0.017ms returns 0
T24AC 000:282.671 JLINK_GetDebugInfo(0x103 = JLINKARM_DEBUG_INFO_TPIU_ADDR_INDEX)
T24AC 000:282.678   Value=0xE0040000
T24AC 000:282.686 - 0.017ms returns 0
T24AC 000:282.693 JLINK_GetDebugInfo(0x104 = JLINKARM_DEBUG_INFO_ITM_ADDR_INDEX)
T24AC 000:282.699   Value=0xE0000000
T24AC 000:282.707 - 0.015ms returns 0
T24AC 000:282.713 JLINK_GetDebugInfo(0x105 = JLINKARM_DEBUG_INFO_DWT_ADDR_INDEX)
T24AC 000:282.720   Value=0xE0001000
T24AC 000:282.728 - 0.016ms returns 0
T24AC 000:282.734 JLINK_GetDebugInfo(0x106 = JLINKARM_DEBUG_INFO_FPB_ADDR_INDEX)
T24AC 000:282.740   Value=0xE0002000
T24AC 000:282.748 - 0.015ms returns 0
T24AC 000:282.755 JLINK_GetDebugInfo(0x107 = JLINKARM_DEBUG_INFO_NVIC_ADDR_INDEX)
T24AC 000:282.760   Value=0xE000E000
T24AC 000:282.768 - 0.016ms returns 0
T24AC 000:282.775 JLINK_GetDebugInfo(0x10C = JLINKARM_DEBUG_INFO_DBG_ADDR_INDEX)
T24AC 000:282.781   Value=0xE000EDF0
T24AC 000:282.789 - 0.017ms returns 0
T24AC 000:282.797 JLINK_GetDebugInfo(0x01 = Unknown)
T24AC 000:282.808   Value=0x00000001
T24AC 000:282.817 - 0.023ms returns 0
T24AC 000:282.825 JLINK_ReadMemU32(0xE000ED00, 0x1 Items)
T24AC 000:282.841   CPU_ReadMem(4 bytes @ 0xE000ED00)
T24AC 000:283.993   Data:  41 C2 0F 41
T24AC 000:284.019   Debug reg: CPUID
T24AC 000:284.028 - 1.207ms returns 1 (0x1)
T24AC 000:284.044 JLINK_GetDebugInfo(0x10F = JLINKARM_DEBUG_INFO_HAS_CORTEX_M_SECURITY_EXT_INDEX)
T24AC 000:284.055   Value=0x00000000
T24AC 000:284.066 - 0.025ms returns 0
T24AC 000:284.075 JLINK_HasError()
T24AC 000:284.104 JLINK_SetResetType(JLINKARM_CM3_RESET_TYPE_NORMAL)
T24AC 000:284.110 - 0.009ms returns JLINKARM_CM3_RESET_TYPE_NORMAL
T24AC 000:284.118 JLINK_Reset()
T24AC 000:284.164   CPU is running
T24AC 000:284.175   CPU_WriteMem(4 bytes @ 0xE000EDF0)
T24AC 000:285.103   CPU is running
T24AC 000:285.117   CPU_WriteMem(4 bytes @ 0xE000EDFC)
T24AC 000:292.450   Reset: Halt core after reset via DEMCR.VC_CORERESET.
T24AC 000:299.164   Reset: Reset device via AIRCR.SYSRESETREQ.
T24AC 000:299.192   CPU is running
T24AC 000:299.219   CPU_WriteMem(4 bytes @ 0xE000ED0C)
T24AC 000:353.994   CPU_ReadMem(4 bytes @ 0xE000EDF0)
T24AC 000:355.035   CPU_ReadMem(4 bytes @ 0xE000EDF0)
T24AC 000:368.138   CPU_WriteMem(4 bytes @ 0xE000EDFC)
T24AC 000:375.785   CPU_ReadMem(4 bytes @ 0xE000EDF0)
T24AC 000:388.991   CPU_WriteMem(4 bytes @ 0xE0002000)
T24AC 000:389.910   CPU_ReadMem(4 bytes @ 0xE000EDFC)
T24AC 000:391.071   CPU_ReadMem(4 bytes @ 0xE0001000)
T24AC 000:392.380 - 108.279ms
T24AC 000:392.411 JLINK_Halt()
T24AC 000:392.421 - 0.012ms returns 0x00
T24AC 000:392.428 JLINK_ReadMemU32(0xE000EDF0, 0x1 Items)
T24AC 000:392.441   CPU_ReadMem(4 bytes @ 0xE000EDF0)
T24AC 000:393.743   Data:  03 00 03 00
T24AC 000:393.765   Debug reg: DHCSR
T24AC 000:393.773 - 1.348ms returns 1 (0x1)
T24AC 000:393.788 JLINK_WriteU32_64(0xE000EDF0, 0xA05F0003)
T24AC 000:393.802   Debug reg: DHCSR
T24AC 000:394.955   CPU_WriteMem(4 bytes @ 0xE000EDF0)
T24AC 000:395.978 - 2.197ms returns 0 (0x00000000)
T24AC 000:395.995 JLINK_WriteU32_64(0xE000EDFC, 0x01000000)
T24AC 000:396.001   Debug reg: DEMCR
T24AC 000:396.014   CPU_WriteMem(4 bytes @ 0xE000EDFC)
T24AC 000:396.976 - 0.988ms returns 0 (0x00000000)
T24AC 000:421.055 JLINK_GetHWStatus(...)
T24AC 000:421.277 - 0.228ms returns 0
T24AC 000:438.450 JLINK_GetNumBPUnits(Type = 0xFFFFFF00)
T24AC 000:438.480 - 0.033ms returns 0x06
T24AC 000:438.488 JLINK_GetNumBPUnits(Type = 0xF0)
T24AC 000:438.493 - 0.008ms returns 0x2000
T24AC 000:438.500 JLINK_GetNumWPUnits()
T24AC 000:438.505 - 0.007ms returns 4
T24AC 000:456.158 JLINK_GetSpeed()
T24AC 000:456.178 - 0.023ms returns 500
T24AC 000:468.313 JLINK_ReadMemU32(0xE000E004, 0x1 Items)
T24AC 000:468.359   CPU_ReadMem(4 bytes @ 0xE000E004)
T24AC 000:469.269   Data:  02 00 00 00
T24AC 000:469.285 - 0.975ms returns 1 (0x1)
T24AC 000:469.309 JLINK_ReadMemU32(0xE000E004, 0x1 Items)
T24AC 000:469.320   CPU_ReadMem(4 bytes @ 0xE000E004)
T24AC 000:470.430   Data:  02 00 00 00
T24AC 000:470.453 - 1.146ms returns 1 (0x1)
T24AC 000:470.465 JLINK_WriteMemEx(0xE0001000, 0x0000001C Bytes, Flags = 0x02000004)
T24AC 000:470.471   Data:  01 00 00 00 00 00 00 00 00 00 00 00 00 00 00 00 ...
T24AC 000:470.488   CPU_WriteMem(28 bytes @ 0xE0001000)
T24AC 000:472.354 - 1.907ms returns 0x1C
T24AC 000:472.384 JLINK_Halt()
T24AC 000:472.390 - 0.008ms returns 0x00
T24AC 000:472.397 JLINK_IsHalted()
T24AC 000:472.403 - 0.008ms returns TRUE
T24AC 000:476.060 JLINK_WriteMem(0x20000000, 0x34C Bytes, ...)
T24AC 000:476.071   Data:  00 BE 0A E0 0D 78 2D 06 68 40 08 24 40 00 00 D3 ...
T24AC 000:477.250   CPU_WriteMem(844 bytes @ 0x20000000)
T24AC 000:498.451 - 22.408ms returns 0x34C
T24AC 000:498.508 JLINK_HasError()
T24AC 000:498.519 JLINK_WriteReg(R0, 0x08000000)
T24AC 000:498.528 - 0.011ms returns 0
T24AC 000:498.535 JLINK_WriteReg(R1, 0x00B71B00)
T24AC 000:498.547 - 0.015ms returns 0
T24AC 000:498.555 JLINK_WriteReg(R2, 0x00000001)
T24AC 000:498.560 - 0.008ms returns 0
T24AC 000:498.567 JLINK_WriteReg(R3, 0x00000000)
T24AC 000:498.573 - 0.008ms returns 0
T24AC 000:498.580 JLINK_WriteReg(R4, 0x00000000)
T24AC 000:498.585 - 0.008ms returns 0
T24AC 000:498.592 JLINK_WriteReg(R5, 0x00000000)
T24AC 000:498.597 - 0.008ms returns 0
T24AC 000:498.604 JLINK_WriteReg(R6, 0x00000000)
T24AC 000:498.610 - 0.008ms returns 0
T24AC 000:498.616 JLINK_WriteReg(R7, 0x00000000)
T24AC 000:498.622 - 0.008ms returns 0
T24AC 000:498.629 JLINK_WriteReg(R8, 0x00000000)
T24AC 000:498.650 - 0.024ms returns 0
T24AC 000:498.657 JLINK_WriteReg(R9, 0x20000348)
T24AC 000:498.662 - 0.008ms returns 0
T24AC 000:498.669 JLINK_WriteReg(R10, 0x00000000)
T24AC 000:498.675 - 0.008ms returns 0
T24AC 000:498.681 JLINK_WriteReg(R11, 0x00000000)
T24AC 000:498.687 - 0.008ms returns 0
T24AC 000:498.693 JLINK_WriteReg(R12, 0x00000000)
T24AC 000:498.699 - 0.008ms returns 0
T24AC 000:498.705 JLINK_WriteReg(R13 (SP), 0x20001000)
T24AC 000:498.711 - 0.008ms returns 0
T24AC 000:498.718 JLINK_WriteReg(R14, 0x20000001)
T24AC 000:498.724 - 0.008ms returns 0
T24AC 000:498.730 JLINK_WriteReg(R15 (PC), 0x200000B0)
T24AC 000:498.742 - 0.017ms returns 0
T24AC 000:498.751 JLINK_WriteReg(XPSR, 0x01000000)
T24AC 000:498.757 - 0.008ms returns 0
T24AC 000:498.764 JLINK_WriteReg(MSP, 0x20001000)
T24AC 000:498.769 - 0.007ms returns 0
T24AC 000:498.775 JLINK_WriteReg(PSP, 0x20001000)
T24AC 000:498.781 - 0.008ms returns 0
T24AC 000:498.787 JLINK_WriteReg(CFBP, 0x00000000)
T24AC 000:498.793 - 0.008ms returns 0
T24AC 000:498.800 JLINK_SetBPEx(Addr = 0x20000000, Type = 0xFFFFFFF2)
T24AC 000:498.810   CPU_ReadMem(2 bytes @ 0x20000000)
T24AC 000:499.701 - 0.919ms returns 0x00000001
T24AC 000:499.733 JLINK_Go()
T24AC 000:499.745   CPU_WriteMem(2 bytes @ 0x20000000)
T24AC 000:500.735   CPU_ReadMem(4 bytes @ 0xE0001000)
T24AC 000:501.648   CPU_WriteMem(4 bytes @ 0xE0002008)
T24AC 000:501.686   CPU_WriteMem(4 bytes @ 0xE000200C)
T24AC 000:501.695   CPU_WriteMem(4 bytes @ 0xE0002010)
T24AC 000:501.703   CPU_WriteMem(4 bytes @ 0xE0002014)
T24AC 000:501.711   CPU_WriteMem(4 bytes @ 0xE0002018)
T24AC 000:501.733   CPU_WriteMem(4 bytes @ 0xE000201C)
T24AC 000:506.329   CPU_WriteMem(4 bytes @ 0xE0001004)
T24AC 000:518.383 - 18.666ms
T24AC 000:518.413 JLINK_IsHalted()
T24AC 000:529.880   CPU_ReadMem(2 bytes @ 0x20000000)
T24AC 000:531.045 - 12.650ms returns TRUE
T24AC 000:531.076 JLINK_ReadReg(R15 (PC))
T24AC 000:531.087 - 0.013ms returns 0x20000000
T24AC 000:531.094 JLINK_ClrBPEx(BPHandle = 0x00000001)
T24AC 000:531.101 - 0.009ms returns 0x00
T24AC 000:531.108 JLINK_ReadReg(R0)
T24AC 000:531.114 - 0.008ms returns 0x00000000
T24AC 000:531.447 JLINK_HasError()
T24AC 000:531.465 JLINK_WriteReg(R0, 0x08000000)
T24AC 000:531.475 - 0.012ms returns 0
T24AC 000:531.482 JLINK_WriteReg(R1, 0x00004000)
T24AC 000:531.488 - 0.008ms returns 0
T24AC 000:531.494 JLINK_WriteReg(R2, 0x000000FF)
T24AC 000:531.500 - 0.008ms returns 0
T24AC 000:531.506 JLINK_WriteReg(R3, 0x00000000)
T24AC 000:531.512 - 0.008ms returns 0
T24AC 000:531.518 JLINK_WriteReg(R4, 0x00000000)
T24AC 000:531.524 - 0.008ms returns 0
T24AC 000:531.530 JLINK_WriteReg(R5, 0x00000000)
T24AC 000:531.536 - 0.008ms returns 0
T24AC 000:531.542 JLINK_WriteReg(R6, 0x00000000)
T24AC 000:531.548 - 0.008ms returns 0
T24AC 000:531.555 JLINK_WriteReg(R7, 0x00000000)
T24AC 000:531.560 - 0.008ms returns 0
T24AC 000:531.567 JLINK_WriteReg(R8, 0x00000000)
T24AC 000:531.572 - 0.008ms returns 0
T24AC 000:531.578 JLINK_WriteReg(R9, 0x20000348)
T24AC 000:531.584 - 0.008ms returns 0
T24AC 000:531.590 JLINK_WriteReg(R10, 0x00000000)
T24AC 000:531.596 - 0.008ms returns 0
T24AC 000:531.603 JLINK_WriteReg(R11, 0x00000000)
T24AC 000:531.608 - 0.008ms returns 0
T24AC 000:531.615 JLINK_WriteReg(R12, 0x00000000)
T24AC 000:531.620 - 0.008ms returns 0
T24AC 000:531.627 JLINK_WriteReg(R13 (SP), 0x20001000)
T24AC 000:531.633 - 0.009ms returns 0
T24AC 000:531.640 JLINK_WriteReg(R14, 0x20000001)
T24AC 000:531.645 - 0.008ms returns 0
T24AC 000:531.652 JLINK_WriteReg(R15 (PC), 0x20000020)
T24AC 000:531.657 - 0.008ms returns 0
T24AC 000:531.664 JLINK_WriteReg(XPSR, 0x01000000)
T24AC 000:531.669 - 0.008ms returns 0
T24AC 000:531.676 JLINK_WriteReg(MSP, 0x20001000)
T24AC 000:531.681 - 0.008ms returns 0
T24AC 000:531.688 JLINK_WriteReg(PSP, 0x20001000)
T24AC 000:531.693 - 0.008ms returns 0
T24AC 000:531.700 JLINK_WriteReg(CFBP, 0x00000000)
T24AC 000:531.705 - 0.008ms returns 0
T24AC 000:531.712 JLINK_SetBPEx(Addr = 0x20000000, Type = 0xFFFFFFF2)
T24AC 000:531.719 - 0.009ms returns 0x00000002
T24AC 000:531.726 JLINK_Go()
T24AC 000:531.738   CPU_ReadMem(4 bytes @ 0xE0001000)
T24AC 000:543.025 - 11.315ms
T24AC 000:543.051 JLINK_IsHalted()
T24AC 000:554.377   CPU_ReadMem(2 bytes @ 0x20000000)
T24AC 000:555.167 - 12.122ms returns TRUE
T24AC 000:555.182 JLINK_ReadReg(R15 (PC))
T24AC 000:555.191 - 0.012ms returns 0x20000000
T24AC 000:555.199 JLINK_ClrBPEx(BPHandle = 0x00000002)
T24AC 000:555.206 - 0.009ms returns 0x00
T24AC 000:555.213 JLINK_ReadReg(R0)
T24AC 000:555.219 - 0.009ms returns 0x00000001
T24AC 000:555.228 JLINK_HasError()
T24AC 000:555.236 JLINK_WriteReg(R0, 0x08000000)
T24AC 000:555.290 - 0.058ms returns 0
T24AC 000:555.299 JLINK_WriteReg(R1, 0x00004000)
T24AC 000:555.305 - 0.009ms returns 0
T24AC 000:555.312 JLINK_WriteReg(R2, 0x000000FF)
T24AC 000:555.318 - 0.009ms returns 0
T24AC 000:555.326 JLINK_WriteReg(R3, 0x00000000)
T24AC 000:555.332 - 0.009ms returns 0
T24AC 000:555.339 JLINK_WriteReg(R4, 0x00000000)
T24AC 000:555.345 - 0.008ms returns 0
T24AC 000:555.352 JLINK_WriteReg(R5, 0x00000000)
T24AC 000:555.358 - 0.008ms returns 0
T24AC 000:555.366 JLINK_WriteReg(R6, 0x00000000)
T24AC 000:555.372 - 0.010ms returns 0
T24AC 000:555.380 JLINK_WriteReg(R7, 0x00000000)
T24AC 000:555.386 - 0.009ms returns 0
T24AC 000:555.394 JLINK_WriteReg(R8, 0x00000000)
T24AC 000:555.400 - 0.009ms returns 0
T24AC 000:555.407 JLINK_WriteReg(R9, 0x20000348)
T24AC 000:555.413 - 0.008ms returns 0
T24AC 000:555.420 JLINK_WriteReg(R10, 0x00000000)
T24AC 000:555.426 - 0.009ms returns 0
T24AC 000:555.434 JLINK_WriteReg(R11, 0x00000000)
T24AC 000:555.440 - 0.008ms returns 0
T24AC 000:555.447 JLINK_WriteReg(R12, 0x00000000)
T24AC 000:555.453 - 0.008ms returns 0
T24AC 000:555.460 JLINK_WriteReg(R13 (SP), 0x20001000)
T24AC 000:555.467 - 0.009ms returns 0
T24AC 000:555.474 JLINK_WriteReg(R14, 0x20000001)
T24AC 000:555.480 - 0.009ms returns 0
T24AC 000:555.488 JLINK_WriteReg(R15 (PC), 0x200001C4)
T24AC 000:555.494 - 0.008ms returns 0
T24AC 000:555.501 JLINK_WriteReg(XPSR, 0x01000000)
T24AC 000:555.507 - 0.009ms returns 0
T24AC 000:555.514 JLINK_WriteReg(MSP, 0x20001000)
T24AC 000:555.520 - 0.008ms returns 0
T24AC 000:555.527 JLINK_WriteReg(PSP, 0x20001000)
T24AC 000:555.533 - 0.008ms returns 0
T24AC 000:555.541 JLINK_WriteReg(CFBP, 0x00000000)
T24AC 000:555.547 - 0.008ms returns 0
T24AC 000:555.554 JLINK_SetBPEx(Addr = 0x20000000, Type = 0xFFFFFFF2)
T24AC 000:555.561 - 0.010ms returns 0x00000003
T24AC 000:555.569 JLINK_Go()
T24AC 000:555.580   CPU_ReadMem(4 bytes @ 0xE0001000)
T24AC 000:566.530 - 10.978ms
T24AC 000:566.562 JLINK_IsHalted()
T24AC 000:567.445 - 0.898ms returns FALSE
T24AC 000:567.475 JLINK_HasError()
T24AC 000:589.329 JLINK_IsHalted()
T24AC 000:590.301 - 0.981ms returns FALSE
T24AC 000:590.318 JLINK_HasError()
T24AC 000:592.354 JLINK_IsHalted()
T24AC 000:593.249 - 0.902ms returns FALSE
T24AC 000:593.263 JLINK_HasError()
T24AC 000:595.334 JLINK_IsHalted()
T24AC 000:596.306 - 0.979ms returns FALSE
T24AC 000:596.320 JLINK_HasError()
T24AC 000:598.329 JLINK_IsHalted()
T24AC 000:599.253 - 0.933ms returns FALSE
T24AC 000:599.271 JLINK_HasError()
T24AC 000:601.307 JLINK_IsHalted()
T24AC 000:602.306 - 1.013ms returns FALSE
T24AC 000:602.331 JLINK_HasError()
T24AC 000:604.286 JLINK_IsHalted()
T24AC 000:605.200 - 0.921ms returns FALSE
T24AC 000:605.214 JLINK_HasError()
T24AC 000:607.276 JLINK_IsHalted()
T24AC 000:608.178 - 0.908ms returns FALSE
T24AC 000:608.193 JLINK_HasError()
T24AC 000:610.303 JLINK_IsHalted()
T24AC 000:611.232 - 0.935ms returns FALSE
T24AC 000:611.246 JLINK_HasError()
T24AC 000:613.295 JLINK_IsHalted()
T24AC 000:614.240 - 0.957ms returns FALSE
T24AC 000:614.266 JLINK_HasError()
T24AC 000:616.290 JLINK_IsHalted()
T24AC 000:617.147 - 0.866ms returns FALSE
T24AC 000:617.168 JLINK_HasError()
T24AC 000:618.288 JLINK_IsHalted()
T24AC 000:619.332 - 1.052ms returns FALSE
T24AC 000:619.351 JLINK_HasError()
T24AC 000:621.301 JLINK_IsHalted()
T24AC 000:622.259 - 0.964ms returns FALSE
T24AC 000:622.273 JLINK_HasError()
T24AC 000:624.257 JLINK_IsHalted()
T24AC 000:625.125 - 0.879ms returns FALSE
T24AC 000:625.147 JLINK_HasError()
T24AC 000:627.225 JLINK_IsHalted()
T24AC 000:628.129 - 0.912ms returns FALSE
T24AC 000:628.145 JLINK_HasError()
T24AC 000:630.225 JLINK_IsHalted()
T24AC 000:631.130 - 0.914ms returns FALSE
T24AC 000:631.147 JLINK_HasError()
T24AC 000:634.190 JLINK_IsHalted()
T24AC 000:635.159 - 0.981ms returns FALSE
T24AC 000:635.180 JLINK_HasError()
T24AC 000:637.172 JLINK_IsHalted()
T24AC 000:638.352 - 1.197ms returns FALSE
T24AC 000:638.380 JLINK_HasError()
T24AC 000:640.405 JLINK_IsHalted()
T24AC 000:641.412 - 1.026ms returns FALSE
T24AC 000:641.442 JLINK_HasError()
T24AC 000:643.040 JLINK_IsHalted()
T24AC 000:644.117 - 1.084ms returns FALSE
T24AC 000:644.132 JLINK_HasError()
T24AC 000:645.266 JLINK_IsHalted()
T24AC 000:646.239 - 0.982ms returns FALSE
T24AC 000:646.260 JLINK_HasError()
T24AC 000:648.195 JLINK_IsHalted()
T24AC 000:649.059 - 0.874ms returns FALSE
T24AC 000:649.081 JLINK_HasError()
T24AC 000:650.284 JLINK_IsHalted()
T24AC 000:651.198 - 0.922ms returns FALSE
T24AC 000:651.215 JLINK_HasError()
T24AC 000:653.348 JLINK_IsHalted()
T24AC 000:654.437 - 1.096ms returns FALSE
T24AC 000:654.450 JLINK_HasError()
T24AC 000:656.257 JLINK_IsHalted()
T24AC 000:657.173 - 0.935ms returns FALSE
T24AC 000:657.204 JLINK_HasError()
T24AC 000:659.230 JLINK_IsHalted()
T24AC 000:660.384 - 1.172ms returns FALSE
T24AC 000:660.412 JLINK_HasError()
T24AC 000:661.572 JLINK_IsHalted()
T24AC 000:662.772 - 1.218ms returns FALSE
T24AC 000:662.801 JLINK_HasError()
T24AC 000:665.795 JLINK_IsHalted()
T24AC 000:667.038 - 1.262ms returns FALSE
T24AC 000:667.067 JLINK_HasError()
T24AC 000:668.810 JLINK_IsHalted()
T24AC 000:669.813 - 1.011ms returns FALSE
T24AC 000:669.829 JLINK_HasError()
T24AC 000:672.045 JLINK_IsHalted()
T24AC 000:673.040 - 1.027ms returns FALSE
T24AC 000:673.101 JLINK_HasError()
T24AC 000:675.057 JLINK_IsHalted()
T24AC 000:676.204 - 1.155ms returns FALSE
T24AC 000:676.220 JLINK_HasError()
T24AC 000:678.239 JLINK_IsHalted()
T24AC 000:679.369 - 1.137ms returns FALSE
T24AC 000:679.383 JLINK_HasError()
T24AC 000:680.558 JLINK_IsHalted()
T24AC 000:681.654 - 1.102ms returns FALSE
T24AC 000:681.667 JLINK_HasError()
T24AC 000:683.707 JLINK_IsHalted()
T24AC 000:684.600 - 0.901ms returns FALSE
T24AC 000:684.617 JLINK_HasError()
T24AC 000:685.864 JLINK_IsHalted()
T24AC 000:686.881 - 1.026ms returns FALSE
T24AC 000:686.901 JLINK_HasError()
T24AC 000:688.843 JLINK_IsHalted()
T24AC 000:689.785 - 0.955ms returns FALSE
T24AC 000:689.807 JLINK_HasError()
T24AC 000:691.077 JLINK_IsHalted()
T24AC 000:692.135 - 1.087ms returns FALSE
T24AC 000:692.173 JLINK_HasError()
T24AC 000:694.206 JLINK_IsHalted()
T24AC 000:695.240 - 1.041ms returns FALSE
T24AC 000:695.273 JLINK_HasError()
T24AC 000:698.312 JLINK_IsHalted()
T24AC 000:699.172 - 0.870ms returns FALSE
T24AC 000:699.192 JLINK_HasError()
T24AC 000:700.984 JLINK_IsHalted()
T24AC 000:702.078 - 1.101ms returns FALSE
T24AC 000:702.091 JLINK_HasError()
T24AC 000:703.188 JLINK_IsHalted()
T24AC 000:704.272 - 1.090ms returns FALSE
T24AC 000:704.285 JLINK_HasError()
T24AC 000:705.479 JLINK_IsHalted()
T24AC 000:706.546 - 1.074ms returns FALSE
T24AC 000:706.559 JLINK_HasError()
T24AC 000:708.368 JLINK_IsHalted()
T24AC 000:709.358 - 0.997ms returns FALSE
T24AC 000:709.372 JLINK_HasError()
T24AC 000:710.549 JLINK_IsHalted()
T24AC 000:711.623 - 1.080ms returns FALSE
T24AC 000:711.636 JLINK_HasError()
T24AC 000:712.826 JLINK_IsHalted()
T24AC 000:713.897 - 1.077ms returns FALSE
T24AC 000:713.910 JLINK_HasError()
T24AC 000:715.935 JLINK_IsHalted()
T24AC 000:716.994 - 1.065ms returns FALSE
T24AC 000:717.006 JLINK_HasError()
T24AC 000:718.525 JLINK_IsHalted()
T24AC 000:719.439 - 0.921ms returns FALSE
T24AC 000:719.452 JLINK_HasError()
T24AC 000:721.625 JLINK_IsHalted()
T24AC 000:722.670 - 1.051ms returns FALSE
T24AC 000:722.685 JLINK_HasError()
T24AC 000:724.621 JLINK_IsHalted()
T24AC 000:725.827 - 1.212ms returns FALSE
T24AC 000:725.839 JLINK_HasError()
T24AC 000:727.022 JLINK_IsHalted()
T24AC 000:728.062 - 1.050ms returns FALSE
T24AC 000:728.081 JLINK_HasError()
T24AC 000:729.818 JLINK_IsHalted()
T24AC 000:730.916 - 1.104ms returns FALSE
T24AC 000:730.930 JLINK_HasError()
T24AC 000:732.931 JLINK_IsHalted()
T24AC 000:744.466   CPU_ReadMem(2 bytes @ 0x20000000)
T24AC 000:745.463 - 12.539ms returns TRUE
T24AC 000:745.479 JLINK_ReadReg(R15 (PC))
T24AC 000:745.488 - 0.012ms returns 0x20000000
T24AC 000:745.496 JLINK_ClrBPEx(BPHandle = 0x00000003)
T24AC 000:745.502 - 0.009ms returns 0x00
T24AC 000:745.557 JLINK_ReadReg(R0)
T24AC 000:745.567 - 0.013ms returns 0x00000000
T24AC 000:745.944 JLINK_HasError()
T24AC 000:745.956 JLINK_WriteReg(R0, 0x00000001)
T24AC 000:745.964 - 0.010ms returns 0
T24AC 000:745.971 JLINK_WriteReg(R1, 0x00004000)
T24AC 000:745.977 - 0.008ms returns 0
T24AC 000:745.984 JLINK_WriteReg(R2, 0x000000FF)
T24AC 000:745.990 - 0.008ms returns 0
T24AC 000:745.997 JLINK_WriteReg(R3, 0x00000000)
T24AC 000:746.003 - 0.008ms returns 0
T24AC 000:746.010 JLINK_WriteReg(R4, 0x00000000)
T24AC 000:746.016 - 0.008ms returns 0
T24AC 000:746.023 JLINK_WriteReg(R5, 0x00000000)
T24AC 000:746.029 - 0.008ms returns 0
T24AC 000:746.036 JLINK_WriteReg(R6, 0x00000000)
T24AC 000:746.042 - 0.008ms returns 0
T24AC 000:746.049 JLINK_WriteReg(R7, 0x00000000)
T24AC 000:746.055 - 0.010ms returns 0
T24AC 000:746.076 JLINK_WriteReg(R8, 0x00000000)
T24AC 000:746.083 - 0.009ms returns 0
T24AC 000:746.090 JLINK_WriteReg(R9, 0x20000348)
T24AC 000:746.095 - 0.008ms returns 0
T24AC 000:746.102 JLINK_WriteReg(R10, 0x00000000)
T24AC 000:746.108 - 0.008ms returns 0
T24AC 000:746.115 JLINK_WriteReg(R11, 0x00000000)
T24AC 000:746.121 - 0.008ms returns 0
T24AC 000:746.128 JLINK_WriteReg(R12, 0x00000000)
T24AC 000:746.134 - 0.008ms returns 0
T24AC 000:746.141 JLINK_WriteReg(R13 (SP), 0x20001000)
T24AC 000:746.148 - 0.009ms returns 0
T24AC 000:746.155 JLINK_WriteReg(R14, 0x20000001)
T24AC 000:746.161 - 0.008ms returns 0
T24AC 000:746.168 JLINK_WriteReg(R15 (PC), 0x20000144)
T24AC 000:746.174 - 0.008ms returns 0
T24AC 000:746.181 JLINK_WriteReg(XPSR, 0x01000000)
T24AC 000:746.187 - 0.008ms returns 0
T24AC 000:746.194 JLINK_WriteReg(MSP, 0x20001000)
T24AC 000:746.200 - 0.008ms returns 0
T24AC 000:746.207 JLINK_WriteReg(PSP, 0x20001000)
T24AC 000:746.213 - 0.008ms returns 0
T24AC 000:746.220 JLINK_WriteReg(CFBP, 0x00000000)
T24AC 000:746.226 - 0.008ms returns 0
T24AC 000:746.233 JLINK_SetBPEx(Addr = 0x20000000, Type = 0xFFFFFFF2)
T24AC 000:746.240 - 0.010ms returns 0x00000004
T24AC 000:746.248 JLINK_Go()
T24AC 000:746.259   CPU_ReadMem(4 bytes @ 0xE0001000)
T24AC 000:757.344 - 11.109ms
T24AC 000:757.367 JLINK_IsHalted()
T24AC 000:768.974   CPU_ReadMem(2 bytes @ 0x20000000)
T24AC 000:769.832 - 12.472ms returns TRUE
T24AC 000:769.851 JLINK_ReadReg(R15 (PC))
T24AC 000:769.860 - 0.012ms returns 0x20000000
T24AC 000:769.867 JLINK_ClrBPEx(BPHandle = 0x00000004)
T24AC 000:769.873 - 0.008ms returns 0x00
T24AC 000:769.880 JLINK_ReadReg(R0)
T24AC 000:769.886 - 0.008ms returns 0x00000000
T24AC 000:831.695 JLINK_WriteMem(0x20000000, 0x34C Bytes, ...)
T24AC 000:831.708   Data:  00 BE 0A E0 0D 78 2D 06 68 40 08 24 40 00 00 D3 ...
T24AC 000:831.727   CPU_WriteMem(844 bytes @ 0x20000000)
T24AC 000:852.996 - 21.345ms returns 0x34C
T24AC 000:853.233 JLINK_HasError()
T24AC 000:853.269 JLINK_WriteReg(R0, 0x08000000)
T24AC 000:853.280 - 0.013ms returns 0
T24AC 000:853.288 JLINK_WriteReg(R1, 0x00B71B00)
T24AC 000:853.295 - 0.009ms returns 0
T24AC 000:853.302 JLINK_WriteReg(R2, 0x00000002)
T24AC 000:853.309 - 0.009ms returns 0
T24AC 000:853.331 JLINK_WriteReg(R3, 0x00000000)
T24AC 000:853.337 - 0.008ms returns 0
T24AC 000:853.345 JLINK_WriteReg(R4, 0x00000000)
T24AC 000:853.350 - 0.008ms returns 0
T24AC 000:853.358 JLINK_WriteReg(R5, 0x00000000)
T24AC 000:853.363 - 0.008ms returns 0
T24AC 000:853.370 JLINK_WriteReg(R6, 0x00000000)
T24AC 000:853.376 - 0.008ms returns 0
T24AC 000:853.383 JLINK_WriteReg(R7, 0x00000000)
T24AC 000:853.389 - 0.008ms returns 0
T24AC 000:853.396 JLINK_WriteReg(R8, 0x00000000)
T24AC 000:853.402 - 0.008ms returns 0
T24AC 000:853.409 JLINK_WriteReg(R9, 0x20000348)
T24AC 000:853.415 - 0.008ms returns 0
T24AC 000:853.422 JLINK_WriteReg(R10, 0x00000000)
T24AC 000:853.428 - 0.008ms returns 0
T24AC 000:853.448 JLINK_WriteReg(R11, 0x00000000)
T24AC 000:853.453 - 0.008ms returns 0
T24AC 000:853.460 JLINK_WriteReg(R12, 0x00000000)
T24AC 000:853.465 - 0.007ms returns 0
T24AC 000:853.472 JLINK_WriteReg(R13 (SP), 0x20001000)
T24AC 000:853.478 - 0.012ms returns 0
T24AC 000:853.491 JLINK_WriteReg(R14, 0x20000001)
T24AC 000:853.496 - 0.008ms returns 0
T24AC 000:853.503 JLINK_WriteReg(R15 (PC), 0x200000B0)
T24AC 000:853.509 - 0.008ms returns 0
T24AC 000:853.515 JLINK_WriteReg(XPSR, 0x01000000)
T24AC 000:853.521 - 0.008ms returns 0
T24AC 000:853.548 JLINK_WriteReg(MSP, 0x20001000)
T24AC 000:853.554 - 0.008ms returns 0
T24AC 000:853.561 JLINK_WriteReg(PSP, 0x20001000)
T24AC 000:853.567 - 0.008ms returns 0
T24AC 000:853.574 JLINK_WriteReg(CFBP, 0x00000000)
T24AC 000:853.579 - 0.008ms returns 0
T24AC 000:853.587 JLINK_SetBPEx(Addr = 0x20000000, Type = 0xFFFFFFF2)
T24AC 000:853.598   CPU_ReadMem(2 bytes @ 0x20000000)
T24AC 000:854.461 - 0.880ms returns 0x00000005
T24AC 000:854.474 JLINK_Go()
T24AC 000:854.483   CPU_WriteMem(2 bytes @ 0x20000000)
T24AC 000:855.509   CPU_ReadMem(4 bytes @ 0xE0001000)
T24AC 000:867.214 - 12.760ms
T24AC 000:867.245 JLINK_IsHalted()
T24AC 000:878.757   CPU_ReadMem(2 bytes @ 0x20000000)
T24AC 000:879.589 - 12.368ms returns TRUE
T24AC 000:879.631 JLINK_ReadReg(R15 (PC))
T24AC 000:879.647 - 0.020ms returns 0x20000000
T24AC 000:879.659 JLINK_ClrBPEx(BPHandle = 0x00000005)
T24AC 000:879.669 - 0.016ms returns 0x00
T24AC 000:879.683 JLINK_ReadReg(R0)
T24AC 000:879.694 - 0.015ms returns 0x00000000
T24AC 000:880.207 JLINK_WriteMem(0x2000034C, 0xB4 Bytes, ...)
T24AC 000:880.222   Data:  18 0A 00 20 A1 01 00 08 AD 07 00 08 19 05 00 08 ...
T24AC 000:880.242   CPU_WriteMem(180 bytes @ 0x2000034C)
T24AC 000:885.641 - 5.451ms returns 0xB4
T24AC 000:885.667 JLINK_WriteMem(0x20000400, 0x34C Bytes, ...)
T24AC 000:885.674   Data:  C5 0A 00 08 BB 01 00 08 BB 01 00 08 BB 01 00 08 ...
T24AC 000:885.693   CPU_WriteMem(844 bytes @ 0x20000400)
T24AC 000:906.810 - 21.159ms returns 0x34C
T24AC 000:906.839 JLINK_HasError()
T24AC 000:906.848 JLINK_WriteReg(R0, 0x08000000)
T24AC 000:906.859 - 0.013ms returns 0
T24AC 000:906.867 JLINK_WriteReg(R1, 0x00000400)
T24AC 000:906.874 - 0.009ms returns 0
T24AC 000:906.881 JLINK_WriteReg(R2, 0x2000034C)
T24AC 000:906.888 - 0.009ms returns 0
T24AC 000:906.897 JLINK_WriteReg(R3, 0x00000000)
T24AC 000:906.903 - 0.009ms returns 0
T24AC 000:906.910 JLINK_WriteReg(R4, 0x00000000)
T24AC 000:906.917 - 0.009ms returns 0
T24AC 000:906.924 JLINK_WriteReg(R5, 0x00000000)
T24AC 000:906.930 - 0.009ms returns 0
T24AC 000:906.937 JLINK_WriteReg(R6, 0x00000000)
T24AC 000:906.944 - 0.009ms returns 0
T24AC 000:906.952 JLINK_WriteReg(R7, 0x00000000)
T24AC 000:906.958 - 0.009ms returns 0
T24AC 000:906.967 JLINK_WriteReg(R8, 0x00000000)
T24AC 000:906.973 - 0.009ms returns 0
T24AC 000:906.982 JLINK_WriteReg(R9, 0x20000348)
T24AC 000:906.988 - 0.009ms returns 0
T24AC 000:906.996 JLINK_WriteReg(R10, 0x00000000)
T24AC 000:907.002 - 0.009ms returns 0
T24AC 000:907.011 JLINK_WriteReg(R11, 0x00000000)
T24AC 000:907.017 - 0.009ms returns 0
T24AC 000:907.025 JLINK_WriteReg(R12, 0x00000000)
T24AC 000:907.031 - 0.008ms returns 0
T24AC 000:907.039 JLINK_WriteReg(R13 (SP), 0x20001000)
T24AC 000:907.046 - 0.009ms returns 0
T24AC 000:907.054 JLINK_WriteReg(R14, 0x20000001)
T24AC 000:907.060 - 0.008ms returns 0
T24AC 000:907.067 JLINK_WriteReg(R15 (PC), 0x20000274)
T24AC 000:907.073 - 0.009ms returns 0
T24AC 000:907.080 JLINK_WriteReg(XPSR, 0x01000000)
T24AC 000:907.087 - 0.009ms returns 0
T24AC 000:907.095 JLINK_WriteReg(MSP, 0x20001000)
T24AC 000:907.101 - 0.009ms returns 0
T24AC 000:907.110 JLINK_WriteReg(PSP, 0x20001000)
T24AC 000:907.116 - 0.008ms returns 0
T24AC 000:907.124 JLINK_WriteReg(CFBP, 0x00000000)
T24AC 000:907.130 - 0.009ms returns 0
T24AC 000:907.139 JLINK_SetBPEx(Addr = 0x20000000, Type = 0xFFFFFFF2)
T24AC 000:907.146 - 0.010ms returns 0x00000006
T24AC 000:907.155 JLINK_Go()
T24AC 000:907.168   CPU_ReadMem(4 bytes @ 0xE0001000)
T24AC 000:918.535 - 11.437ms
T24AC 000:918.612 JLINK_IsHalted()
T24AC 000:919.724 - 1.140ms returns FALSE
T24AC 000:919.783 JLINK_HasError()
T24AC 000:928.517 JLINK_IsHalted()
T24AC 000:929.518 - 1.023ms returns FALSE
T24AC 000:929.554 JLINK_HasError()
T24AC 000:930.752 JLINK_IsHalted()
T24AC 000:931.879 - 1.136ms returns FALSE
T24AC 000:931.896 JLINK_HasError()
T24AC 000:933.111 JLINK_IsHalted()
T24AC 000:934.071 - 1.019ms returns FALSE
T24AC 000:934.160 JLINK_HasError()
T24AC 000:936.026 JLINK_IsHalted()
T24AC 000:947.632   CPU_ReadMem(2 bytes @ 0x20000000)
T24AC 000:948.690 - 12.672ms returns TRUE
T24AC 000:948.709 JLINK_ReadReg(R15 (PC))
T24AC 000:948.719 - 0.012ms returns 0x20000000
T24AC 000:948.727 JLINK_ClrBPEx(BPHandle = 0x00000006)
T24AC 000:948.733 - 0.009ms returns 0x00
T24AC 000:948.741 JLINK_ReadReg(R0)
T24AC 000:948.747 - 0.009ms returns 0x00000000
T24AC 000:949.256 JLINK_WriteMem(0x2000034C, 0xB4 Bytes, ...)
T24AC 000:949.266   Data:  47 54 0A 30 02 D5 00 20 01 46 E9 E7 01 05 10 19 ...
T24AC 000:949.280   CPU_WriteMem(180 bytes @ 0x2000034C)
T24AC 000:954.631 - 5.391ms returns 0xB4
T24AC 000:954.657 JLINK_WriteMem(0x20000400, 0x34C Bytes, ...)
T24AC 000:954.664   Data:  FA E7 03 29 01 D1 10 48 F6 E7 04 29 01 D1 0F 48 ...
T24AC 000:954.683   CPU_WriteMem(844 bytes @ 0x20000400)
T24AC 000:975.862 - 21.221ms returns 0x34C
T24AC 000:975.924 JLINK_HasError()
T24AC 000:976.028 JLINK_WriteReg(R0, 0x08000400)
T24AC 000:976.062 - 0.037ms returns 0
T24AC 000:976.071 JLINK_WriteReg(R1, 0x00000400)
T24AC 000:976.077 - 0.009ms returns 0
T24AC 000:976.084 JLINK_WriteReg(R2, 0x2000034C)
T24AC 000:976.103 - 0.025ms returns 0
T24AC 000:976.113 JLINK_WriteReg(R3, 0x00000000)
T24AC 000:976.119 - 0.008ms returns 0
T24AC 000:976.125 JLINK_WriteReg(R4, 0x00000000)
T24AC 000:976.131 - 0.026ms returns 0
T24AC 000:976.156 JLINK_WriteReg(R5, 0x00000000)
T24AC 000:976.162 - 0.008ms returns 0
T24AC 000:976.169 JLINK_WriteReg(R6, 0x00000000)
T24AC 000:976.175 - 0.008ms returns 0
T24AC 000:976.182 JLINK_WriteReg(R7, 0x00000000)
T24AC 000:976.187 - 0.008ms returns 0
T24AC 000:976.207 JLINK_WriteReg(R8, 0x00000000)
T24AC 000:976.213 - 0.008ms returns 0
T24AC 000:976.219 JLINK_WriteReg(R9, 0x20000348)
T24AC 000:976.225 - 0.008ms returns 0
T24AC 000:976.231 JLINK_WriteReg(R10, 0x00000000)
T24AC 000:976.237 - 0.026ms returns 0
T24AC 000:976.262 JLINK_WriteReg(R11, 0x00000000)
T24AC 000:976.268 - 0.008ms returns 0
T24AC 000:976.275 JLINK_WriteReg(R12, 0x00000000)
T24AC 000:976.280 - 0.008ms returns 0
T24AC 000:976.287 JLINK_WriteReg(R13 (SP), 0x20001000)
T24AC 000:976.294 - 0.022ms returns 0
T24AC 000:976.314 JLINK_WriteReg(R14, 0x20000001)
T24AC 000:976.320 - 0.008ms returns 0
T24AC 000:976.326 JLINK_WriteReg(R15 (PC), 0x20000274)
T24AC 000:976.332 - 0.008ms returns 0
T24AC 000:976.356 JLINK_WriteReg(XPSR, 0x01000000)
T24AC 000:976.363 - 0.009ms returns 0
T24AC 000:976.370 JLINK_WriteReg(MSP, 0x20001000)
T24AC 000:976.376 - 0.008ms returns 0
T24AC 000:976.383 JLINK_WriteReg(PSP, 0x20001000)
T24AC 000:976.389 - 0.008ms returns 0
T24AC 000:976.396 JLINK_WriteReg(CFBP, 0x00000000)
T24AC 000:976.401 - 0.021ms returns 0
T24AC 000:976.422 JLINK_SetBPEx(Addr = 0x20000000, Type = 0xFFFFFFF2)
T24AC 000:976.429 - 0.009ms returns 0x00000007
T24AC 000:976.436 JLINK_Go()
T24AC 000:976.449   CPU_ReadMem(4 bytes @ 0xE0001000)
T24AC 000:987.712 - 11.308ms
T24AC 000:987.757 JLINK_IsHalted()
T24AC 000:988.915 - 1.165ms returns FALSE
T24AC 000:988.930 JLINK_HasError()
T24AC 000:991.713 JLINK_IsHalted()
T24AC 000:992.941 - 1.265ms returns FALSE
T24AC 000:992.991 JLINK_HasError()
T24AC 000:996.702 JLINK_IsHalted()
T24AC 000:997.951 - 1.267ms returns FALSE
T24AC 000:997.979 JLINK_HasError()
T24AC 000:999.368 JLINK_IsHalted()
T24AC 001:000.609 - 1.259ms returns FALSE
T24AC 001:000.639 JLINK_HasError()
T24AC 001:002.357 JLINK_IsHalted()
T24AC 001:003.635 - 1.296ms returns FALSE
T24AC 001:003.664 JLINK_HasError()
T24AC 001:005.637 JLINK_IsHalted()
T24AC 001:017.194   CPU_ReadMem(2 bytes @ 0x20000000)
T24AC 001:018.081 - 12.473ms returns TRUE
T24AC 001:018.120 JLINK_ReadReg(R15 (PC))
T24AC 001:018.130 - 0.012ms returns 0x20000000
T24AC 001:018.137 JLINK_ClrBPEx(BPHandle = 0x00000007)
T24AC 001:018.143 - 0.017ms returns 0x00
T24AC 001:018.161 JLINK_ReadReg(R0)
T24AC 001:018.167 - 0.008ms returns 0x00000000
T24AC 001:018.780 JLINK_WriteMem(0x2000034C, 0xB4 Bytes, ...)
T24AC 001:018.791   Data:  D9 F8 03 48 00 68 40 1C 01 49 08 60 10 BD 00 00 ...
T24AC 001:018.824   CPU_WriteMem(180 bytes @ 0x2000034C)
T24AC 001:024.200 - 5.458ms returns 0xB4
T24AC 001:024.249 JLINK_WriteMem(0x20000400, 0x34C Bytes, ...)
T24AC 001:024.256   Data:  09 48 08 30 00 68 00 20 00 28 F9 D1 08 48 06 49 ...
T24AC 001:024.275   CPU_WriteMem(844 bytes @ 0x20000400)
T24AC 001:045.830 - 21.598ms returns 0x34C
T24AC 001:045.860 JLINK_HasError()
T24AC 001:045.870 JLINK_WriteReg(R0, 0x08000800)
T24AC 001:045.880 - 0.013ms returns 0
T24AC 001:045.887 JLINK_WriteReg(R1, 0x00000400)
T24AC 001:045.893 - 0.008ms returns 0
T24AC 001:045.900 JLINK_WriteReg(R2, 0x2000034C)
T24AC 001:045.906 - 0.008ms returns 0
T24AC 001:045.914 JLINK_WriteReg(R3, 0x00000000)
T24AC 001:045.920 - 0.009ms returns 0
T24AC 001:045.929 JLINK_WriteReg(R4, 0x00000000)
T24AC 001:045.934 - 0.008ms returns 0
T24AC 001:045.942 JLINK_WriteReg(R5, 0x00000000)
T24AC 001:045.948 - 0.008ms returns 0
T24AC 001:045.956 JLINK_WriteReg(R6, 0x00000000)
T24AC 001:045.962 - 0.008ms returns 0
T24AC 001:045.970 JLINK_WriteReg(R7, 0x00000000)
T24AC 001:045.975 - 0.008ms returns 0
T24AC 001:045.983 JLINK_WriteReg(R8, 0x00000000)
T24AC 001:045.989 - 0.008ms returns 0
T24AC 001:045.997 JLINK_WriteReg(R9, 0x20000348)
T24AC 001:046.003 - 0.008ms returns 0
T24AC 001:046.010 JLINK_WriteReg(R10, 0x00000000)
T24AC 001:046.016 - 0.008ms returns 0
T24AC 001:046.024 JLINK_WriteReg(R11, 0x00000000)
T24AC 001:046.029 - 0.008ms returns 0
T24AC 001:046.036 JLINK_WriteReg(R12, 0x00000000)
T24AC 001:046.041 - 0.008ms returns 0
T24AC 001:046.047 JLINK_WriteReg(R13 (SP), 0x20001000)
T24AC 001:046.054 - 0.008ms returns 0
T24AC 001:046.060 JLINK_WriteReg(R14, 0x20000001)
T24AC 001:046.066 - 0.008ms returns 0
T24AC 001:046.073 JLINK_WriteReg(R15 (PC), 0x20000274)
T24AC 001:046.078 - 0.008ms returns 0
T24AC 001:046.086 JLINK_WriteReg(XPSR, 0x01000000)
T24AC 001:046.092 - 0.008ms returns 0
T24AC 001:046.098 JLINK_WriteReg(MSP, 0x20001000)
T24AC 001:046.104 - 0.008ms returns 0
T24AC 001:046.110 JLINK_WriteReg(PSP, 0x20001000)
T24AC 001:046.116 - 0.008ms returns 0
T24AC 001:046.122 JLINK_WriteReg(CFBP, 0x00000000)
T24AC 001:046.128 - 0.008ms returns 0
T24AC 001:046.137 JLINK_SetBPEx(Addr = 0x20000000, Type = 0xFFFFFFF2)
T24AC 001:046.143 - 0.009ms returns 0x00000008
T24AC 001:046.151 JLINK_Go()
T24AC 001:046.164   CPU_ReadMem(4 bytes @ 0xE0001000)
T24AC 001:058.135 - 12.001ms
T24AC 001:058.165 JLINK_IsHalted()
T24AC 001:059.141 - 1.007ms returns FALSE
T24AC 001:059.186 JLINK_HasError()
T24AC 001:064.106 JLINK_IsHalted()
T24AC 001:065.110 - 1.022ms returns FALSE
T24AC 001:065.140 JLINK_HasError()
T24AC 001:066.873 JLINK_IsHalted()
T24AC 001:067.798 - 0.932ms returns FALSE
T24AC 001:067.813 JLINK_HasError()
T24AC 001:071.964 JLINK_IsHalted()
T24AC 001:072.970 - 1.012ms returns FALSE
T24AC 001:072.984 JLINK_HasError()
T24AC 001:075.173 JLINK_IsHalted()
T24AC 001:086.621   CPU_ReadMem(2 bytes @ 0x20000000)
T24AC 001:087.628 - 12.467ms returns TRUE
T24AC 001:087.669 JLINK_ReadReg(R15 (PC))
T24AC 001:087.681 - 0.014ms returns 0x20000000
T24AC 001:087.688 JLINK_ClrBPEx(BPHandle = 0x00000008)
T24AC 001:087.695 - 0.008ms returns 0x00
T24AC 001:087.701 JLINK_ReadReg(R0)
T24AC 001:087.707 - 0.008ms returns 0x00000000
T24AC 001:088.299 JLINK_WriteMem(0x2000034C, 0xB4 Bytes, ...)
T24AC 001:088.308   Data:  00 72 02 21 01 48 01 F0 F3 FE 10 BD 00 04 02 40 ...
T24AC 001:088.323   CPU_WriteMem(180 bytes @ 0x2000034C)
T24AC 001:094.143 - 5.861ms returns 0xB4
T24AC 001:094.169 JLINK_WriteMem(0x20000400, 0x34C Bytes, ...)
T24AC 001:094.176   Data:  06 E0 25 28 0B D0 5A 46 0B 99 90 47 64 1C 6D 1C ...
T24AC 001:094.193   CPU_WriteMem(844 bytes @ 0x20000400)
T24AC 001:115.802 - 21.649ms returns 0x34C
T24AC 001:115.833 JLINK_HasError()
T24AC 001:115.843 JLINK_WriteReg(R0, 0x08000C00)
T24AC 001:115.858 - 0.020ms returns 0
T24AC 001:115.947 JLINK_WriteReg(R1, 0x00000400)
T24AC 001:115.961 - 0.016ms returns 0
T24AC 001:115.969 JLINK_WriteReg(R2, 0x2000034C)
T24AC 001:115.975 - 0.008ms returns 0
T24AC 001:115.982 JLINK_WriteReg(R3, 0x00000000)
T24AC 001:115.988 - 0.008ms returns 0
T24AC 001:115.995 JLINK_WriteReg(R4, 0x00000000)
T24AC 001:116.001 - 0.010ms returns 0
T24AC 001:116.010 JLINK_WriteReg(R5, 0x00000000)
T24AC 001:116.015 - 0.008ms returns 0
T24AC 001:116.022 JLINK_WriteReg(R6, 0x00000000)
T24AC 001:116.028 - 0.008ms returns 0
T24AC 001:116.034 JLINK_WriteReg(R7, 0x00000000)
T24AC 001:116.040 - 0.008ms returns 0
T24AC 001:116.047 JLINK_WriteReg(R8, 0x00000000)
T24AC 001:116.052 - 0.008ms returns 0
T24AC 001:116.059 JLINK_WriteReg(R9, 0x20000348)
T24AC 001:116.065 - 0.008ms returns 0
T24AC 001:116.071 JLINK_WriteReg(R10, 0x00000000)
T24AC 001:116.077 - 0.008ms returns 0
T24AC 001:116.084 JLINK_WriteReg(R11, 0x00000000)
T24AC 001:116.089 - 0.008ms returns 0
T24AC 001:116.096 JLINK_WriteReg(R12, 0x00000000)
T24AC 001:116.101 - 0.008ms returns 0
T24AC 001:116.108 JLINK_WriteReg(R13 (SP), 0x20001000)
T24AC 001:116.114 - 0.009ms returns 0
T24AC 001:116.121 JLINK_WriteReg(R14, 0x20000001)
T24AC 001:116.126 - 0.008ms returns 0
T24AC 001:116.133 JLINK_WriteReg(R15 (PC), 0x20000274)
T24AC 001:116.139 - 0.008ms returns 0
T24AC 001:116.146 JLINK_WriteReg(XPSR, 0x01000000)
T24AC 001:116.151 - 0.008ms returns 0
T24AC 001:116.158 JLINK_WriteReg(MSP, 0x20001000)
T24AC 001:116.163 - 0.008ms returns 0
T24AC 001:116.170 JLINK_WriteReg(PSP, 0x20001000)
T24AC 001:116.176 - 0.008ms returns 0
T24AC 001:116.183 JLINK_WriteReg(CFBP, 0x00000000)
T24AC 001:116.188 - 0.008ms returns 0
T24AC 001:116.195 JLINK_SetBPEx(Addr = 0x20000000, Type = 0xFFFFFFF2)
T24AC 001:116.202 - 0.010ms returns 0x00000009
T24AC 001:116.210 JLINK_Go()
T24AC 001:116.223   CPU_ReadMem(4 bytes @ 0xE0001000)
T24AC 001:128.529 - 12.336ms
T24AC 001:128.556 JLINK_IsHalted()
T24AC 001:129.639 - 1.115ms returns FALSE
T24AC 001:129.681 JLINK_HasError()
T24AC 001:133.608 JLINK_IsHalted()
T24AC 001:134.760 - 1.169ms returns FALSE
T24AC 001:134.809 JLINK_HasError()
T24AC 001:136.853 JLINK_IsHalted()
T24AC 001:137.909 - 1.073ms returns FALSE
T24AC 001:137.936 JLINK_HasError()
T24AC 001:139.656 JLINK_IsHalted()
T24AC 001:140.934 - 1.308ms returns FALSE
T24AC 001:140.977 JLINK_HasError()
T24AC 001:142.863 JLINK_IsHalted()
T24AC 001:143.912 - 1.081ms returns FALSE
T24AC 001:146.432 JLINK_HasError()
T24AC 001:147.797 JLINK_IsHalted()
T24AC 001:159.530   CPU_ReadMem(2 bytes @ 0x20000000)
T24AC 001:160.609 - 12.836ms returns TRUE
T24AC 001:160.643 JLINK_ReadReg(R15 (PC))
T24AC 001:160.653 - 0.013ms returns 0x20000000
T24AC 001:160.661 JLINK_ClrBPEx(BPHandle = 0x00000009)
T24AC 001:160.667 - 0.009ms returns 0x00
T24AC 001:160.674 JLINK_ReadReg(R0)
T24AC 001:160.680 - 0.008ms returns 0x00000000
T24AC 001:161.163 JLINK_WriteMem(0x2000034C, 0xB4 Bytes, ...)
T24AC 001:161.172   Data:  00 F0 16 FE 00 F0 48 FE 00 F0 78 FE 00 F0 A8 FE ...
T24AC 001:161.187   CPU_WriteMem(180 bytes @ 0x2000034C)
T24AC 001:166.829 - 5.683ms returns 0xB4
T24AC 001:166.859 JLINK_WriteMem(0x20000400, 0x34C Bytes, ...)
T24AC 001:166.866   Data:  EB DD 4F F4 A2 62 00 21 01 20 00 F0 10 F8 4F F4 ...
T24AC 001:166.883   CPU_WriteMem(844 bytes @ 0x20000400)
T24AC 001:188.239 - 21.397ms returns 0x34C
T24AC 001:188.269 JLINK_HasError()
T24AC 001:188.278 JLINK_WriteReg(R0, 0x08001000)
T24AC 001:188.288 - 0.013ms returns 0
T24AC 001:188.295 JLINK_WriteReg(R1, 0x00000400)
T24AC 001:188.302 - 0.009ms returns 0
T24AC 001:188.380 JLINK_WriteReg(R2, 0x2000034C)
T24AC 001:188.394 - 0.016ms returns 0
T24AC 001:188.402 JLINK_WriteReg(R3, 0x00000000)
T24AC 001:188.408 - 0.009ms returns 0
T24AC 001:188.415 JLINK_WriteReg(R4, 0x00000000)
T24AC 001:188.421 - 0.008ms returns 0
T24AC 001:188.428 JLINK_WriteReg(R5, 0x00000000)
T24AC 001:188.433 - 0.009ms returns 0
T24AC 001:188.444 JLINK_WriteReg(R6, 0x00000000)
T24AC 001:188.450 - 0.018ms returns 0
T24AC 001:188.469 JLINK_WriteReg(R7, 0x00000000)
T24AC 001:188.475 - 0.008ms returns 0
T24AC 001:188.482 JLINK_WriteReg(R8, 0x00000000)
T24AC 001:188.488 - 0.008ms returns 0
T24AC 001:188.494 JLINK_WriteReg(R9, 0x20000348)
T24AC 001:188.500 - 0.008ms returns 0
T24AC 001:188.507 JLINK_WriteReg(R10, 0x00000000)
T24AC 001:188.512 - 0.008ms returns 0
T24AC 001:188.519 JLINK_WriteReg(R11, 0x00000000)
T24AC 001:188.525 - 0.008ms returns 0
T24AC 001:188.531 JLINK_WriteReg(R12, 0x00000000)
T24AC 001:188.537 - 0.008ms returns 0
T24AC 001:188.544 JLINK_WriteReg(R13 (SP), 0x20001000)
T24AC 001:188.550 - 0.009ms returns 0
T24AC 001:188.557 JLINK_WriteReg(R14, 0x20000001)
T24AC 001:188.562 - 0.008ms returns 0
T24AC 001:188.569 JLINK_WriteReg(R15 (PC), 0x20000274)
T24AC 001:188.575 - 0.008ms returns 0
T24AC 001:188.581 JLINK_WriteReg(XPSR, 0x01000000)
T24AC 001:188.587 - 0.008ms returns 0
T24AC 001:188.594 JLINK_WriteReg(MSP, 0x20001000)
T24AC 001:188.599 - 0.008ms returns 0
T24AC 001:188.606 JLINK_WriteReg(PSP, 0x20001000)
T24AC 001:188.612 - 0.008ms returns 0
T24AC 001:188.619 JLINK_WriteReg(CFBP, 0x00000000)
T24AC 001:188.624 - 0.008ms returns 0
T24AC 001:188.631 JLINK_SetBPEx(Addr = 0x20000000, Type = 0xFFFFFFF2)
T24AC 001:188.639 - 0.010ms returns 0x0000000A
T24AC 001:188.646 JLINK_Go()
T24AC 001:188.659   CPU_ReadMem(4 bytes @ 0xE0001000)
T24AC 001:199.893 - 11.265ms
T24AC 001:199.922 JLINK_IsHalted()
T24AC 001:200.910 - 1.032ms returns FALSE
T24AC 001:200.967 JLINK_HasError()
T24AC 001:204.373 JLINK_IsHalted()
T24AC 001:205.361 - 1.026ms returns FALSE
T24AC 001:205.410 JLINK_HasError()
T24AC 001:208.082 JLINK_IsHalted()
T24AC 001:209.197 - 1.133ms returns FALSE
T24AC 001:209.225 JLINK_HasError()
T24AC 001:211.066 JLINK_IsHalted()
T24AC 001:212.143 - 1.102ms returns FALSE
T24AC 001:212.178 JLINK_HasError()
T24AC 001:214.073 JLINK_IsHalted()
T24AC 001:215.313 - 1.257ms returns FALSE
T24AC 001:215.344 JLINK_HasError()
T24AC 001:216.544 JLINK_IsHalted()
T24AC 001:228.419   CPU_ReadMem(2 bytes @ 0x20000000)
T24AC 001:229.457 - 12.948ms returns TRUE
T24AC 001:229.503 JLINK_ReadReg(R15 (PC))
T24AC 001:229.513 - 0.013ms returns 0x20000000
T24AC 001:229.521 JLINK_ClrBPEx(BPHandle = 0x0000000A)
T24AC 001:229.527 - 0.009ms returns 0x00
T24AC 001:229.534 JLINK_ReadReg(R0)
T24AC 001:229.541 - 0.009ms returns 0x00000000
T24AC 001:230.153 JLINK_WriteMem(0x2000034C, 0xB4 Bytes, ...)
T24AC 001:230.171   Data:  0C D1 08 E0 00 26 00 27 0B E0 01 26 00 27 08 E0 ...
T24AC 001:230.191   CPU_WriteMem(180 bytes @ 0x2000034C)
T24AC 001:235.815 - 5.679ms returns 0xB4
T24AC 001:235.842 JLINK_WriteMem(0x20000400, 0x34C Bytes, ...)
T24AC 001:235.851   Data:  1C 50 AD F8 1E 50 14 22 15 49 14 31 68 46 FE F7 ...
T24AC 001:235.869   CPU_WriteMem(844 bytes @ 0x20000400)
T24AC 001:257.225 - 21.400ms returns 0x34C
T24AC 001:257.256 JLINK_HasError()
T24AC 001:257.265 JLINK_WriteReg(R0, 0x08001400)
T24AC 001:257.276 - 0.013ms returns 0
T24AC 001:257.283 JLINK_WriteReg(R1, 0x00000400)
T24AC 001:257.289 - 0.009ms returns 0
T24AC 001:257.373 JLINK_WriteReg(R2, 0x2000034C)
T24AC 001:257.386 - 0.016ms returns 0
T24AC 001:257.394 JLINK_WriteReg(R3, 0x00000000)
T24AC 001:257.400 - 0.008ms returns 0
T24AC 001:257.407 JLINK_WriteReg(R4, 0x00000000)
T24AC 001:257.413 - 0.008ms returns 0
T24AC 001:257.421 JLINK_WriteReg(R5, 0x00000000)
T24AC 001:257.427 - 0.008ms returns 0
T24AC 001:257.434 JLINK_WriteReg(R6, 0x00000000)
T24AC 001:257.439 - 0.008ms returns 0
T24AC 001:257.446 JLINK_WriteReg(R7, 0x00000000)
T24AC 001:257.452 - 0.008ms returns 0
T24AC 001:257.458 JLINK_WriteReg(R8, 0x00000000)
T24AC 001:257.464 - 0.008ms returns 0
T24AC 001:257.471 JLINK_WriteReg(R9, 0x20000348)
T24AC 001:257.477 - 0.008ms returns 0
T24AC 001:257.483 JLINK_WriteReg(R10, 0x00000000)
T24AC 001:257.489 - 0.008ms returns 0
T24AC 001:257.496 JLINK_WriteReg(R11, 0x00000000)
T24AC 001:257.501 - 0.008ms returns 0
T24AC 001:257.508 JLINK_WriteReg(R12, 0x00000000)
T24AC 001:257.513 - 0.012ms returns 0
T24AC 001:257.527 JLINK_WriteReg(R13 (SP), 0x20001000)
T24AC 001:257.533 - 0.009ms returns 0
T24AC 001:257.540 JLINK_WriteReg(R14, 0x20000001)
T24AC 001:257.546 - 0.008ms returns 0
T24AC 001:257.553 JLINK_WriteReg(R15 (PC), 0x20000274)
T24AC 001:257.559 - 0.008ms returns 0
T24AC 001:257.565 JLINK_WriteReg(XPSR, 0x01000000)
T24AC 001:257.571 - 0.008ms returns 0
T24AC 001:257.578 JLINK_WriteReg(MSP, 0x20001000)
T24AC 001:257.583 - 0.008ms returns 0
T24AC 001:257.590 JLINK_WriteReg(PSP, 0x20001000)
T24AC 001:257.596 - 0.008ms returns 0
T24AC 001:257.603 JLINK_WriteReg(CFBP, 0x00000000)
T24AC 001:257.608 - 0.008ms returns 0
T24AC 001:257.615 JLINK_SetBPEx(Addr = 0x20000000, Type = 0xFFFFFFF2)
T24AC 001:257.623 - 0.010ms returns 0x0000000B
T24AC 001:257.630 JLINK_Go()
T24AC 001:257.643   CPU_ReadMem(4 bytes @ 0xE0001000)
T24AC 001:268.861 - 11.249ms
T24AC 001:268.889 JLINK_IsHalted()
T24AC 001:269.924 - 1.051ms returns FALSE
T24AC 001:269.963 JLINK_HasError()
T24AC 001:273.105 JLINK_IsHalted()
T24AC 001:274.168 - 1.080ms returns FALSE
T24AC 001:274.195 JLINK_HasError()
T24AC 001:276.100 JLINK_IsHalted()
T24AC 001:277.114 - 1.044ms returns FALSE
T24AC 001:277.175 JLINK_HasError()
T24AC 001:279.333 JLINK_IsHalted()
T24AC 001:280.458 - 1.140ms returns FALSE
T24AC 001:280.482 JLINK_HasError()
T24AC 001:281.659 JLINK_IsHalted()
T24AC 001:282.687 - 1.037ms returns FALSE
T24AC 001:282.707 JLINK_HasError()
T24AC 001:284.737 JLINK_IsHalted()
T24AC 001:296.376   CPU_ReadMem(2 bytes @ 0x20000000)
T24AC 001:297.387 - 12.667ms returns TRUE
T24AC 001:297.414 JLINK_ReadReg(R15 (PC))
T24AC 001:297.424 - 0.013ms returns 0x20000000
T24AC 001:297.432 JLINK_ClrBPEx(BPHandle = 0x0000000B)
T24AC 001:297.438 - 0.009ms returns 0x00
T24AC 001:297.445 JLINK_ReadReg(R0)
T24AC 001:297.451 - 0.008ms returns 0x00000000
T24AC 001:297.978 JLINK_WriteMem(0x2000034C, 0xB4 Bytes, ...)
